Time [s],Channel 0,Channel 1,Channel 2,Channel 3,Channel 4,Channel 5
0.000000000,0,1,0,1,0,1
0.000696730,0,1,1,1,0,1
0.000697680,0,1,0,1,0,1
0.005126850,0,1,0,1,1,1
0.005127890,0,1,0,1,0,1
0.006407120,0,1,1,1,0,1
0.006407380,0,1,0,1,0,1
0.006407480,0,1,1,1,0,1
0.006407980,0,1,0,1,0,1
0.006408310,0,1,1,1,0,1
0.006408600,0,1,0,1,0,1
0.006408700,0,1,1,1,0,1
0.006408780,0,1,0,1,0,1
0.006408860,0,1,1,1,0,1
0.006408950,0,1,0,1,0,1
0.006409090,0,1,1,1,0,1
0.006409220,0,1,0,1,0,1
0.006409270,0,1,1,1,0,1
0.006409370,0,1,0,1,0,1
0.006409440,0,1,1,1,0,1
0.006409590,0,1,0,1,0,1
0.006409690,0,1,1,1,0,1
0.006409780,0,1,0,1,0,1
0.006409850,0,1,1,1,0,1
0.006409940,0,1,0,1,0,1
0.006410020,0,1,1,1,0,1
0.006410110,0,1,0,1,0,1
0.006410250,0,1,1,1,0,1
0.006410300,0,1,1,0,0,1
0.006410420,0,1,0,0,0,1
0.006410500,0,1,1,0,0,1
0.006410600,0,1,0,0,0,1
0.006410740,0,1,1,0,0,1
0.006410910,0,1,0,0,0,1
0.006411070,0,1,1,0,0,1
0.006411170,0,1,0,0,0,1
0.006411250,0,1,1,0,0,1
0.006411400,0,1,0,0,0,1
0.006411500,0,1,1,0,0,1
0.006411580,0,1,0,0,0,1
0.006411670,0,1,1,0,0,1
0.006411750,0,1,0,0,0,1
0.006411910,0,1,1,0,0,1
0.006412000,0,1,0,0,0,1
0.006412080,0,1,1,0,0,1
0.006412240,0,1,0,0,0,1
0.006412340,0,1,1,0,0,1
0.006412410,0,1,0,0,0,1
0.006412580,0,1,1,0,0,1
0.006412740,0,1,0,0,0,1
0.006412910,0,1,1,0,0,1
0.006413070,0,1,0,0,0,1
0.006413250,0,1,1,0,0,1
0.006413410,0,1,0,0,0,1
0.006413510,0,1,1,0,0,1
0.006413580,0,1,0,0,0,1
0.006413740,0,1,1,0,0,1
0.006413840,0,1,0,0,0,1
0.006413920,0,1,1,0,0,1
0.006414070,0,1,0,0,0,1
0.006414180,0,1,1,0,0,1
0.006414250,0,1,0,0,0,1
0.006414390,0,1,1,0,0,1
0.006414510,0,1,0,0,0,1
0.006414590,0,1,1,0,0,1
0.006414740,0,1,0,0,0,1
0.006414900,0,1,1,0,0,1
0.006415030,0,1,0,0,0,1
0.006415110,0,1,1,0,0,1
0.006415250,0,1,0,0,0,1
0.006415350,0,1,1,0,0,1
0.006415450,0,1,0,0,0,1
0.006415530,0,1,1,0,0,1
0.006415610,0,1,0,0,0,1
0.006415780,0,1,1,0,0,1
0.006415950,0,1,0,0,0,1
0.006416130,0,1,1,0,0,1
0.006416430,0,1,0,0,0,1
0.006416660,0,1,1,0,0,1
0.006416940,0,1,0,0,0,1
0.006417180,0,1,1,0,0,1
0.006417320,0,1,1,1,0,1
0.006418140,0,1,0,1,0,1
0.006424010,0,1,0,1,1,1
0.006424210,0,1,0,1,0,1
0.006424290,0,1,0,1,1,1
0.006424470,0,1,0,1,0,1
0.006424800,0,1,0,1,1,1
0.006424960,0,1,0,1,0,1
0.006425130,0,1,0,1,1,1
0.006425290,0,1,0,1,0,1
0.006425380,0,1,0,1,1,1
0.006425450,0,1,0,1,0,1
0.006425590,0,1,0,1,1,1
0.006425630,0,1,1,1,1,1
0.006425710,0,1,1,1,0,1
0.006425780,0,1,1,1,1,1
0.006425920,0,1,1,1,0,1
0.006426020,0,1,1,1,1,1
0.006426110,0,1,1,1,0,1
0.006426190,0,1,1,1,1,1
0.006426280,0,1,1,1,0,1
0.006426350,0,1,1,1,1,1
0.006426440,0,1,1,1,0,1
0.006426520,0,1,1,1,1,1
0.006426580,0,1,0,1,1,1
0.006426610,0,1,0,1,0,1
0.006426750,0,1,0,1,1,1
0.006426860,0,1,0,1,1,0
0.006426910,0,1,0,1,0,0
0.006427000,0,1,0,1,1,0
0.006427090,0,1,0,1,0,0
0.006427170,0,1,0,1,1,0
0.006427260,0,1,0,1,0,0
0.006427340,0,1,0,1,1,0
0.006427420,0,1,0,1,0,0
0.006427500,0,1,0,1,1,0
0.006427580,0,1,0,1,0,0
0.006427730,0,1,0,1,1,0
0.006427830,0,1,0,1,0,0
0.006427910,0,1,0,1,1,0
0.006428000,0,1,0,1,0,0
0.006428080,0,1,0,1,1,0
0.006428240,0,1,0,1,0,0
0.006428340,0,1,0,1,1,0
0.006428410,0,1,0,1,0,0
0.006428570,0,1,0,1,1,0
0.006428740,0,1,0,1,0,0
0.006428910,0,1,0,1,1,0
0.006429000,0,1,0,1,0,0
0.006429080,0,1,0,1,1,0
0.006429160,0,1,0,1,0,0
0.006429250,0,1,0,1,1,0
0.006429330,0,1,0,1,0,0
0.006429420,0,1,0,1,1,0
0.006429570,0,1,0,1,0,0
0.006429750,0,1,0,1,1,0
0.006429900,0,1,0,1,0,0
0.006430000,0,1,0,1,1,0
0.006430080,0,1,0,1,0,0
0.006430240,0,1,0,1,1,0
0.006430400,0,1,0,1,0,0
0.006430500,0,1,0,1,1,0
0.006430580,0,1,0,1,0,0
0.006430670,0,1,0,1,1,0
0.006430750,0,1,0,1,0,0
0.006430900,0,1,0,1,1,0
0.006431070,0,1,0,1,0,0
0.006431170,0,1,0,1,1,0
0.006431250,0,1,0,1,0,0
0.006431330,0,1,0,1,1,0
0.006431420,0,1,0,1,0,0
0.006431500,0,1,0,1,1,0
0.006431590,0,1,0,1,0,0
0.006431730,0,1,0,1,1,0
0.006431910,0,1,0,1,0,0
0.006432010,0,1,0,1,1,0
0.006432110,0,1,0,1,0,0
0.006432190,0,1,0,1,1,0
0.006432280,0,1,0,1,0,0
0.006432370,0,1,0,1,1,0
0.006432440,0,1,0,1,0,0
0.006432610,0,1,0,1,1,0
0.006432660,1,1,0,1,1,0
0.006432710,1,1,0,1,0,0
0.006432800,1,1,0,1,1,0
0.006432870,1,1,0,1,0,0
0.006432960,1,1,0,1,1,0
0.006433080,1,1,0,1,0,0
0.006433120,0,1,0,1,0,0
0.006433610,0,1,0,1,1,0
0.006433620,1,1,0,1,1,0
0.006433880,0,1,0,1,1,0
0.006433960,1,1,0,1,1,0
0.006434050,0,1,0,1,1,0
0.006434110,0,1,0,1,1,1
0.006434120,1,1,0,1,1,1
0.006434210,0,1,0,1,1,1
0.006434240,0,1,0,1,0,1
0.006434290,1,1,0,1,0,1
0.006434440,0,1,0,1,0,1
0.006434600,1,1,0,1,0,1
0.006434720,0,1,0,1,0,1
0.006434770,1,1,0,1,0,1
0.006434860,0,1,0,1,0,1
0.006434940,1,1,0,1,0,1
0.006435030,0,1,0,1,0,1
0.006435110,1,1,0,1,0,1
0.006435260,0,1,0,1,0,1
0.006435340,1,1,0,1,0,1
0.006435440,0,1,0,1,0,1
0.006435580,1,1,0,1,0,1
0.006435640,1,0,0,1,0,1
0.006435740,0,0,0,1,0,1
0.006435900,1,0,0,1,0,1
0.006436010,0,0,0,1,0,1
0.006436080,1,0,0,1,0,1
0.006436170,0,0,0,1,0,1
0.006436250,1,0,0,1,0,1
0.006436400,0,0,0,1,0,1
0.006436570,1,0,0,1,0,1
0.006436740,0,0,0,1,0,1
0.006436910,1,0,0,1,0,1
0.006437000,0,0,0,1,0,1
0.006437080,1,0,0,1,0,1
0.006437240,0,0,0,1,0,1
0.006437340,1,0,0,1,0,1
0.006437410,0,0,0,1,0,1
0.006437580,1,0,0,1,0,1
0.006437670,0,0,0,1,0,1
0.006437750,1,0,0,1,0,1
0.006437830,0,0,0,1,0,1
0.006437920,1,0,0,1,0,1
0.006438070,0,0,0,1,0,1
0.006438250,1,0,0,1,0,1
0.006438330,0,0,0,1,0,1
0.006438420,1,0,0,1,0,1
0.006438570,0,0,0,1,0,1
0.006438750,1,0,0,1,0,1
0.006438830,0,0,0,1,0,1
0.006438920,1,0,0,1,0,1
0.006439000,0,0,0,1,0,1
0.006439090,1,0,0,1,0,1
0.006439230,0,0,0,1,0,1
0.006439410,1,0,0,1,0,1
0.006439500,0,0,0,1,0,1
0.006439580,1,0,0,1,0,1
0.006439670,0,0,0,1,0,1
0.006439750,1,0,0,1,0,1
0.006439910,0,0,0,1,0,1
0.006440060,1,0,0,1,0,1
0.006440180,0,0,0,1,0,1
0.006440260,1,0,0,1,0,1
0.006440410,0,0,0,1,0,1
0.006440520,1,0,0,1,0,1
0.006440610,0,0,0,1,0,1
0.006440690,1,0,0,1,0,1
0.006440780,0,0,0,1,0,1
0.006440860,1,0,0,1,0,1
0.006440950,0,0,0,1,0,1
0.006441030,1,0,0,1,0,1
0.006441120,0,0,0,1,0,1
0.006441200,1,0,0,1,0,1
0.006441280,0,0,0,1,0,1
0.006441370,1,0,0,1,0,1
0.006441450,0,0,0,1,0,1
0.006441620,1,0,0,1,0,1
0.006441770,0,0,0,1,0,1
0.006442040,1,0,0,1,0,1
0.006442140,0,0,0,1,0,1
0.006442210,1,0,0,1,0,1
0.006442300,0,0,0,1,0,1
0.006442620,1,0,0,1,0,1
0.006442790,0,0,0,1,0,1
0.006442870,0,1,0,1,0,1
0.006443140,1,1,0,1,0,1
0.006444140,0,1,0,1,0,1
0.006457170,0,1,0,1,1,1
0.006458210,0,1,0,1,0,1
0.007521630,0,1,0,1,1,1
0.007522670,0,1,0,1,0,1
0.011249550,0,1,0,1,1,1
0.011250580,0,1,0,1,0,1
0.013203200,0,1,1,1,0,1
0.013204150,0,1,0,1,0,1
0.014490360,0,1,1,1,0,1
0.014491310,0,1,0,1,0,1
0.019031050,0,1,1,1,0,1
0.019032000,0,1,0,1,0,1
0.019609110,1,1,0,1,0,1
0.019609220,0,1,0,1,0,1
0.019609320,1,1,0,1,0,1
0.019609440,0,1,0,1,0,1
0.019609520,1,1,0,1,0,1
0.019609660,0,1,0,1,0,1
0.019609830,1,1,0,1,0,1
0.019609990,0,1,0,1,0,1
0.019610090,1,1,0,1,0,1
0.019610170,0,1,0,1,0,1
0.019610310,1,1,0,1,0,1
0.019610480,0,1,0,1,0,1
0.019610640,1,1,0,1,0,1
0.019610750,0,1,0,1,0,1
0.019610820,1,1,0,1,0,1
0.019610910,0,1,0,1,0,1
0.019610980,1,1,0,1,0,1
0.019611000,1,0,0,1,0,1
0.019611080,0,0,0,1,0,1
0.019611150,1,0,0,1,0,1
0.019611300,0,0,0,1,0,1
0.019611390,1,0,0,1,0,1
0.019611480,0,0,0,1,0,1
0.019611560,1,0,0,1,0,1
0.019611650,0,0,0,1,0,1
0.019611720,1,0,0,1,0,1
0.019611810,0,0,0,1,0,1
0.019611950,1,0,0,1,0,1
0.019612120,0,0,0,1,0,1
0.019612220,1,0,0,1,0,1
0.019612300,0,0,0,1,0,1
0.019612450,1,0,0,1,0,1
0.019612560,0,0,0,1,0,1
0.019612640,1,0,0,1,0,1
0.019612790,0,0,0,1,0,1
0.019612960,1,0,0,1,0,1
0.019613050,0,0,0,1,0,1
0.019613140,1,0,0,1,0,1
0.019613220,0,0,0,1,0,1
0.019613310,1,0,0,1,0,1
0.019613390,0,0,0,1,0,1
0.019613470,1,0,0,1,0,1
0.019613620,0,0,0,1,0,1
0.019613720,1,0,0,1,0,1
0.019613800,0,0,0,1,0,1
0.019613960,1,0,0,1,0,1
0.019614050,0,0,0,1,0,1
0.019614140,1,0,0,1,0,1
0.019614220,0,0,0,1,0,1
0.019614310,1,0,0,1,0,1
0.019614390,0,0,0,1,0,1
0.019614470,1,0,0,1,0,1
0.019614620,0,0,0,1,0,1
0.019614800,1,0,0,1,0,1
0.019614960,0,0,0,1,0,1
0.019615060,1,0,0,1,0,1
0.019615130,0,0,0,1,0,1
0.019615220,1,0,0,1,0,1
0.019615300,0,0,0,1,0,1
0.019615390,1,0,0,1,0,1
0.019615470,0,0,0,1,0,1
0.019615560,1,0,0,1,0,1
0.019615640,0,0,0,1,0,1
0.019615720,1,0,0,1,0,1
0.019615810,0,0,0,1,0,1
0.019615940,1,0,0,1,0,1
0.019616120,0,0,0,1,0,1
0.019616280,1,0,0,1,0,1
0.019616400,0,0,0,1,0,1
0.019616480,1,0,0,1,0,1
0.019616630,0,0,0,1,0,1
0.019616730,1,0,0,1,0,1
0.019616830,0,0,0,1,0,1
0.019616910,1,0,0,1,0,1
0.019617000,0,0,0,1,0,1
0.019617140,1,0,0,1,0,1
0.019617320,0,0,0,1,0,1
0.019617480,1,0,0,1,0,1
0.019617600,0,0,0,1,0,1
0.019617680,1,0,0,1,0,1
0.019617820,0,0,0,1,0,1
0.019618000,1,0,0,1,0,1
0.019618120,0,0,0,1,0,1
0.019618180,1,0,0,1,0,1
0.019618280,0,0,0,1,0,1
0.019618720,1,0,0,1,0,1
0.019618900,0,0,0,1,0,1
0.019619000,1,0,0,1,0,1
0.019619100,1,1,0,1,0,1
0.019619530,1,1,1,1,0,1
0.019619970,1,1,0,1,0,1
0.019620010,0,1,0,1,0,1
0.019620340,0,1,1,1,0,1
0.019620510,0,1,0,1,0,1
0.019620600,0,1,1,1,0,1
0.019620670,0,1,0,1,0,1
0.019620740,0,1,1,1,0,1
0.019620850,0,1,0,1,0,1
0.019620980,0,1,1,1,0,1
0.019621160,0,1,0,1,0,1
0.019621330,0,1,1,1,0,1
0.019621490,0,1,0,1,0,1
0.019621650,0,1,1,1,0,1
0.019621810,0,1,0,1,0,1
0.019621970,0,1,1,1,0,1
0.019622080,0,1,0,1,0,1
0.019622150,0,1,1,1,0,1
0.019622220,0,1,1,0,0,1
0.019622230,0,1,0,0,0,1
0.019622310,0,1,1,0,0,1
0.019622470,0,1,0,0,0,1
0.019622620,0,1,1,0,0,1
0.019622730,0,1,0,0,0,1
0.019622810,0,1,1,0,0,1
0.019622890,0,1,0,0,0,1
0.019622970,0,1,1,0,0,1
0.019623060,0,1,0,0,0,1
0.019623140,0,1,1,0,0,1
0.019623290,0,1,0,0,0,1
0.019623460,0,1,1,0,0,1
0.019623620,0,1,0,0,0,1
0.019623730,0,1,1,0,0,1
0.019623800,0,1,0,0,0,1
0.019623960,0,1,1,0,0,1
0.019624130,0,1,0,0,0,1
0.019624220,0,1,1,0,0,1
0.019624300,0,1,0,0,0,1
0.019624390,0,1,1,0,0,1
0.019624470,0,1,0,0,0,1
0.019624630,0,1,1,0,0,1
0.019624720,0,1,0,0,0,1
0.019624800,0,1,1,0,0,1
0.019624890,0,1,0,0,0,1
0.019624970,0,1,1,0,0,1
0.019625120,0,1,0,0,0,1
0.019625300,0,1,1,0,0,1
0.019625460,0,1,0,0,0,1
0.019625560,0,1,1,0,0,1
0.019625640,0,1,0,0,0,1
0.019625790,0,1,1,0,0,1
0.019625890,0,1,0,0,0,1
0.019625970,0,1,1,0,0,1
0.019626120,0,1,0,0,0,1
0.019626230,0,1,1,0,0,1
0.019626300,0,1,0,0,0,1
0.019626460,0,1,1,0,0,1
0.019626560,0,1,0,0,0,1
0.019626630,0,1,1,0,0,1
0.019626720,0,1,0,0,0,1
0.019626800,0,1,1,0,0,1
0.019626890,0,1,0,0,0,1
0.019626970,0,1,1,0,0,1
0.019627120,0,1,0,0,0,1
0.019627230,0,1,1,0,0,1
0.019627310,0,1,0,0,0,1
0.019627390,0,1,1,0,0,1
0.019627480,0,1,0,0,0,1
0.019627550,0,1,1,0,0,1
0.019627650,0,1,0,0,0,1
0.019627780,0,1,1,0,0,1
0.019627960,0,1,0,0,0,1
0.019628130,0,1,1,0,0,1
0.019628250,0,1,0,0,0,1
0.019628330,0,1,1,0,0,1
0.019628420,0,1,0,0,0,1
0.019628490,0,1,1,0,0,1
0.019628650,0,1,0,0,0,1
0.019628820,0,1,1,0,0,1
0.019628950,0,1,0,0,0,1
0.019629000,0,1,1,0,0,1
0.019629150,0,1,0,0,0,1
0.019629270,0,1,1,0,0,1
0.019629340,0,1,0,0,0,1
0.019629490,0,1,1,0,0,1
0.019629670,0,1,0,0,0,1
0.019629780,0,1,1,0,0,1
0.019629850,0,1,0,0,0,1
0.019629920,0,1,1,0,0,1
0.019630020,0,1,0,0,0,1
0.019630570,0,1,0,1,0,1
0.019640180,0,1,0,1,1,1
0.019641000,0,1,0,1,0,1
0.019641100,0,1,0,1,1,1
0.019641180,0,1,0,1,0,1
0.019641320,0,1,0,1,1,1
0.019641440,0,1,0,1,0,1
0.019641490,0,1,0,1,1,1
0.019641660,0,1,0,1,0,1
0.019641820,0,1,0,1,1,1
0.019641940,0,1,0,1,0,1
0.019642000,0,1,0,1,1,1
0.019642140,0,1,0,1,0,1
0.019642250,0,1,0,1,1,1
0.019642330,0,1,0,1,0,1
0.019642410,0,1,0,1,1,1
0.019642500,0,1,0,1,0,1
0.019642630,0,1,0,1,1,1
0.019642740,0,1,0,1,0,1
0.019642820,0,1,0,1,1,1
0.019642940,0,1,0,1,1,0
0.019642960,0,1,0,1,0,0
0.019643060,0,1,0,1,1,0
0.019643150,0,1,0,1,0,0
0.019643220,0,1,0,1,1,0
0.019643310,0,1,0,1,0,0
0.019643450,0,1,0,1,1,0
0.019643560,0,1,0,1,0,0
0.019643640,0,1,0,1,1,0
0.019643720,0,1,0,1,0,0
0.019643800,0,1,0,1,1,0
0.019643950,0,1,0,1,0,0
0.019644120,0,1,0,1,1,0
0.019644220,0,1,0,1,0,0
0.019644300,0,1,0,1,1,0
0.019644450,0,1,0,1,0,0
0.019644560,0,1,0,1,1,0
0.019644630,0,1,0,1,0,0
0.019644790,0,1,0,1,1,0
0.019644960,0,1,0,1,0,0
0.019645060,0,1,0,1,1,0
0.019645130,0,1,0,1,0,0
0.019645220,0,1,0,1,1,0
0.019645300,0,1,0,1,0,0
0.019645460,0,1,0,1,1,0
0.019645630,0,1,0,1,0,0
0.019645800,0,1,0,1,1,0
0.019645960,0,1,0,1,0,0
0.019646130,0,1,0,1,1,0
0.019646220,0,1,0,1,0,0
0.019646300,0,1,0,1,1,0
0.019646380,0,1,0,1,0,0
0.019646470,0,1,0,1,1,0
0.019646550,0,1,0,1,0,0
0.019646640,0,1,0,1,1,0
0.019646790,0,1,0,1,0,0
0.019646960,0,1,0,1,1,0
0.019647050,0,1,0,1,0,0
0.019647140,0,1,0,1,1,0
0.019647290,0,1,0,1,0,0
0.019647390,0,1,0,1,1,0
0.019647470,0,1,0,1,0,0
0.019647560,0,1,0,1,1,0
0.019647630,0,1,0,1,0,0
0.019647720,0,1,0,1,1,0
0.019647800,0,1,0,1,0,0
0.019647890,0,1,0,1,1,0
0.019647970,0,1,0,1,0,0
0.019648100,0,1,0,1,1,0
0.019648280,0,1,0,1,0,0
0.019648440,0,1,0,1,1,0
0.019648560,0,1,0,1,0,0
0.019648650,0,1,0,1,1,0
0.019648800,0,1,0,1,0,0
0.019648900,0,1,0,1,1,0
0.019648990,0,1,0,1,0,0
0.019649080,0,1,0,1,1,0
0.019649170,0,1,0,1,0,0
0.019649300,0,1,0,1,1,0
0.019649480,0,1,0,1,0,0
0.019649660,0,1,0,1,1,0
0.019649830,0,1,0,1,0,0
0.019649920,0,1,0,1,1,0
0.019650000,0,1,0,1,0,0
0.019650090,0,1,0,1,1,0
0.019650170,0,1,0,1,0,0
0.019650360,0,1,0,1,1,0
0.019650500,0,1,0,1,0,0
0.019650710,0,1,0,1,1,0
0.019650840,0,1,0,1,0,0
0.019650940,0,1,0,1,1,0
0.019651020,0,1,0,1,0,0
0.019651230,0,1,0,1,0,1
0.022099350,0,1,1,1,0,1
0.022100300,0,1,0,1,0,1
0.023453100,1,1,0,1,0,1
0.023454080,0,1,0,1,0,1
0.024754470,0,1,1,1,0,1
0.024755420,0,1,0,1,0,1
0.026386860,0,1,1,1,0,1
0.026387020,0,1,0,1,0,1
0.026387170,0,1,1,1,0,1
0.026387430,0,1,0,1,0,1
0.026387510,0,1,1,1,0,1
0.026387660,0,1,0,1,0,1
0.026387770,0,1,1,1,0,1
0.026387830,0,1,0,1,0,1
0.026387910,0,1,1,1,0,1
0.026388000,0,1,0,1,0,1
0.026388150,0,1,1,1,0,1
0.026388260,0,1,0,1,0,1
0.026388330,0,1,1,1,0,1
0.026388420,0,1,0,1,0,1
0.026388490,0,1,1,1,0,1
0.026388640,0,1,0,1,0,1
0.026388730,0,1,1,1,0,1
0.026388830,0,1,0,1,0,1
0.026388900,0,1,1,1,0,1
0.026388990,0,1,0,1,0,1
0.026389060,0,1,1,1,0,1
0.026389150,0,1,0,1,0,1
0.026389230,0,1,0,0,0,1
0.026389290,0,1,1,0,0,1
0.026389460,0,1,0,0,0,1
0.026389550,0,1,1,0,0,1
0.026389640,0,1,0,0,0,1
0.026389780,0,1,1,0,0,1
0.026389950,0,1,0,0,0,1
0.026390120,0,1,1,0,0,1
0.026390220,0,1,0,0,0,1
0.026390300,0,1,1,0,0,1
0.026390460,0,1,0,0,0,1
0.026390550,0,1,1,0,0,1
0.026390630,0,1,0,0,0,1
0.026390720,0,1,1,0,0,1
0.026390800,0,1,0,0,0,1
0.026390960,0,1,1,0,0,1
0.026391050,0,1,0,0,0,1
0.026391130,0,1,1,0,0,1
0.026391290,0,1,0,0,0,1
0.026391390,0,1,1,0,0,1
0.026391460,0,1,0,0,0,1
0.026391630,0,1,1,0,0,1
0.026391790,0,1,0,0,0,1
0.026391960,0,1,1,0,0,1
0.026392120,0,1,0,0,0,1
0.026392300,0,1,1,0,0,1
0.026392460,0,1,0,0,0,1
0.026392550,0,1,1,0,0,1
0.026392630,0,1,0,0,0,1
0.026392790,0,1,1,0,0,1
0.026392890,0,1,0,0,0,1
0.026392960,0,1,1,0,0,1
0.026393120,0,1,0,0,0,1
0.026393220,0,1,1,0,0,1
0.026393300,0,1,0,0,0,1
0.026393430,0,1,1,0,0,1
0.026393560,0,1,0,0,0,1
0.026393640,0,1,1,0,0,1
0.026393790,0,1,0,0,0,1
0.026393940,0,1,1,0,0,1
0.026394080,0,1,0,0,0,1
0.026394160,0,1,1,0,0,1
0.026394310,0,1,0,0,0,1
0.026394410,0,1,1,0,0,1
0.026394500,0,1,0,0,0,1
0.026394570,0,1,1,0,0,1
0.026394660,0,1,0,0,0,1
0.026394830,0,1,1,0,0,1
0.026394990,0,1,0,0,0,1
0.026395180,0,1,1,0,0,1
0.026395480,0,1,0,0,0,1
0.026396230,0,1,1,0,0,1
0.026396340,0,1,1,1,0,1
0.026396360,0,1,0,1,0,1
0.026397840,0,1,1,1,0,1
0.026398790,0,1,0,1,0,1
0.026402780,0,1,0,1,1,1
0.026402890,0,1,0,1,0,1
0.026403000,0,1,0,1,1,1
0.026403730,0,1,0,1,0,1
0.026403820,0,1,0,1,1,1
0.026404000,0,1,0,1,0,1
0.026404170,0,1,0,1,1,1
0.026404340,0,1,0,1,0,1
0.026404420,0,1,0,1,1,1
0.026404510,0,1,0,1,0,1
0.026404640,0,1,0,1,1,1
0.026404760,0,1,0,1,0,1
0.026404830,0,1,0,1,1,1
0.026404980,0,1,0,1,0,1
0.026405070,0,1,0,1,1,1
0.026405160,0,1,0,1,0,1
0.026405240,0,1,0,1,1,1
0.026405330,0,1,0,1,0,1
0.026405400,0,1,0,1,1,1
0.026405490,0,1,0,1,0,1
0.026405560,0,1,0,1,1,1
0.026405650,0,1,0,1,0,1
0.026405800,0,1,0,1,1,1
0.026405890,0,1,0,1,1,0
0.026405970,0,1,0,1,0,0
0.026406060,0,1,0,1,1,0
0.026406140,0,1,0,1,0,0
0.026406220,0,1,0,1,1,0
0.026406300,0,1,0,1,0,0
0.026406380,0,1,0,1,1,0
0.026406470,0,1,0,1,0,0
0.026406550,0,1,0,1,1,0
0.026406630,0,1,0,1,0,0
0.026406780,0,1,0,1,1,0
0.026406880,0,1,0,1,0,0
0.026406960,0,1,0,1,1,0
0.026407050,0,1,0,1,0,0
0.026407130,0,1,0,1,1,0
0.026407280,0,1,0,1,0,0
0.026407390,0,1,0,1,1,0
0.026407460,0,1,0,1,0,0
0.026407620,0,1,0,1,1,0
0.026407790,0,1,0,1,0,0
0.026407960,0,1,0,1,1,0
0.026408050,0,1,0,1,0,0
0.026408130,0,1,0,1,1,0
0.026408210,0,1,0,1,0,0
0.026408300,0,1,0,1,1,0
0.026408380,0,1,0,1,0,0
0.026408470,0,1,0,1,1,0
0.026408620,0,1,0,1,0,0
0.026408790,0,1,0,1,1,0
0.026408950,0,1,0,1,0,0
0.026409050,0,1,0,1,1,0
0.026409130,0,1,0,1,0,0
0.026409290,0,1,0,1,1,0
0.026409450,0,1,0,1,0,0
0.026409550,0,1,0,1,1,0
0.026409630,0,1,0,1,0,0
0.026409720,0,1,0,1,1,0
0.026409800,0,1,0,1,0,0
0.026409940,0,1,0,1,1,0
0.026410120,0,1,0,1,0,0
0.026410220,0,1,0,1,1,0
0.026410300,0,1,0,1,0,0
0.026410380,0,1,0,1,1,0
0.026410470,0,1,0,1,0,0
0.026410550,0,1,0,1,1,0
0.026410640,0,1,0,1,0,0
0.026410790,0,1,0,1,1,0
0.026410960,0,1,0,1,0,0
0.026411060,0,1,0,1,1,0
0.026411160,0,1,0,1,0,0
0.026411250,0,1,0,1,1,0
0.026411330,0,1,0,1,0,0
0.026411410,0,1,0,1,1,0
0.026411500,0,1,0,1,0,0
0.026411660,0,1,1,1,1,0
0.026411780,0,1,1,1,0,0
0.026411850,0,1,1,1,1,0
0.026411930,0,1,1,1,0,0
0.026412010,0,1,1,1,1,0
0.026412130,0,1,1,1,0,0
0.026412620,0,1,0,1,0,0
0.026412660,0,1,0,1,1,0
0.026412670,1,1,0,1,1,0
0.026412780,0,1,0,1,1,0
0.026412840,1,1,0,1,1,0
0.026412930,0,1,0,1,1,0
0.026412940,0,1,0,1,0,0
0.026412960,0,1,0,1,0,1
0.026413020,1,1,0,1,0,1
0.026413090,0,1,0,1,0,1
0.026413170,1,1,0,1,0,1
0.026413260,0,1,0,1,0,1
0.026413330,1,1,0,1,0,1
0.026413480,0,1,0,1,0,1
0.026413650,1,1,0,1,0,1
0.026413760,0,1,0,1,0,1
0.026413820,1,1,0,1,0,1
0.026413920,0,1,0,1,0,1
0.026413990,1,1,0,1,0,1
0.026414080,0,1,0,1,0,1
0.026414150,1,1,0,1,0,1
0.026414310,0,1,0,1,0,1
0.026414390,1,1,0,1,0,1
0.026414490,0,1,0,1,0,1
0.026414620,1,1,0,1,0,1
0.026414670,1,0,0,1,0,1
0.026414790,0,0,0,1,0,1
0.026414950,1,0,0,1,0,1
0.026415050,0,0,0,1,0,1
0.026415130,1,0,0,1,0,1
0.026415220,0,0,0,1,0,1
0.026415300,1,0,0,1,0,1
0.026415450,0,0,0,1,0,1
0.026415620,1,0,0,1,0,1
0.026415790,0,0,0,1,0,1
0.026415960,1,0,0,1,0,1
0.026416050,0,0,0,1,0,1
0.026416130,1,0,0,1,0,1
0.026416290,0,0,0,1,0,1
0.026416390,1,0,0,1,0,1
0.026416460,0,0,0,1,0,1
0.026416630,1,0,0,1,0,1
0.026416710,0,0,0,1,0,1
0.026416800,1,0,0,1,0,1
0.026416880,0,0,0,1,0,1
0.026416970,1,0,0,1,0,1
0.026417120,0,0,0,1,0,1
0.026417300,1,0,0,1,0,1
0.026417380,0,0,0,1,0,1
0.026417470,1,0,0,1,0,1
0.026417620,0,0,0,1,0,1
0.026417790,1,0,0,1,0,1
0.026417880,0,0,0,1,0,1
0.026417970,1,0,0,1,0,1
0.026418050,0,0,0,1,0,1
0.026418140,1,0,0,1,0,1
0.026418280,0,0,0,1,0,1
0.026418450,1,0,0,1,0,1
0.026418550,0,0,0,1,0,1
0.026418630,1,0,0,1,0,1
0.026418720,0,0,0,1,0,1
0.026418800,1,0,0,1,0,1
0.026418960,0,0,0,1,0,1
0.026419110,1,0,0,1,0,1
0.026419240,0,0,0,1,0,1
0.026419320,1,0,0,1,0,1
0.026419460,0,0,0,1,0,1
0.026419560,1,0,0,1,0,1
0.026419660,0,0,0,1,0,1
0.026419740,1,0,0,1,0,1
0.026419830,0,0,0,1,0,1
0.026419920,1,0,0,1,0,1
0.026420000,0,0,0,1,0,1
0.026420080,1,0,0,1,0,1
0.026420160,0,0,0,1,0,1
0.026420250,1,0,0,1,0,1
0.026420340,0,0,0,1,0,1
0.026420420,1,0,0,1,0,1
0.026420500,0,0,0,1,0,1
0.026420660,1,0,0,1,0,1
0.026420830,0,0,0,1,0,1
0.026420930,1,0,0,1,0,1
0.026421000,0,0,0,1,0,1
0.026421090,1,0,0,1,0,1
0.026421170,0,0,0,1,0,1
0.026421260,1,0,0,1,0,1
0.026421360,0,0,0,1,0,1
0.026421650,1,0,0,1,0,1
0.026421840,0,0,0,1,0,1
